SBY  1:13:56 [/home/nikhil/projects/axi4lsf/fv/fvip_axi4lite_prove] Removing directory '/home/nikhil/projects/axi4lsf/fv/fvip_axi4lite_prove'.
SBY  1:13:56 [/home/nikhil/projects/axi4lsf/fv/fvip_axi4lite_prove] Copy '/home/nikhil/projects/axi4lsf/rtl/axi4lite_slave_example.sv' to '/home/nikhil/projects/axi4lsf/fv/fvip_axi4lite_prove/src/axi4lite_slave_example.sv'.
SBY  1:13:56 [/home/nikhil/projects/axi4lsf/fv/fvip_axi4lite_prove] Copy '/home/nikhil/projects/axi4lsf/fv/fvip_axi4lite_props.sv' to '/home/nikhil/projects/axi4lsf/fv/fvip_axi4lite_prove/src/fvip_axi4lite_props.sv'.
SBY  1:13:56 [/home/nikhil/projects/axi4lsf/fv/fvip_axi4lite_prove] Copy '/home/nikhil/projects/axi4lsf/fv/fvip_top.sv' to '/home/nikhil/projects/axi4lsf/fv/fvip_axi4lite_prove/src/fvip_top.sv'.
SBY  1:13:56 [/home/nikhil/projects/axi4lsf/fv/fvip_axi4lite_prove] engine_0: smtbmc --unroll boolector
SBY  1:13:56 [/home/nikhil/projects/axi4lsf/fv/fvip_axi4lite_prove] base: starting process "cd /home/nikhil/projects/axi4lsf/fv/fvip_axi4lite_prove/src; yosys -ql ../model/design.log ../model/design.ys"
SBY  1:13:56 [/home/nikhil/projects/axi4lsf/fv/fvip_axi4lite_prove] base: Warning: Wire fvip_top.\aresetn is used but has no driver.
SBY  1:13:56 [/home/nikhil/projects/axi4lsf/fv/fvip_axi4lite_prove] base: Warning: Wire fvip_top.\awaddr [3] is used but has no driver.
SBY  1:13:56 [/home/nikhil/projects/axi4lsf/fv/fvip_axi4lite_prove] base: Warning: Wire fvip_top.\awaddr [2] is used but has no driver.
SBY  1:13:56 [/home/nikhil/projects/axi4lsf/fv/fvip_axi4lite_prove] base: Warning: Wire fvip_top.\awaddr [1] is used but has no driver.
SBY  1:13:56 [/home/nikhil/projects/axi4lsf/fv/fvip_axi4lite_prove] base: Warning: Wire fvip_top.\awaddr [0] is used but has no driver.
SBY  1:13:56 [/home/nikhil/projects/axi4lsf/fv/fvip_axi4lite_prove] base: Warning: Wire fvip_top.\awprot [2] is used but has no driver.
SBY  1:13:56 [/home/nikhil/projects/axi4lsf/fv/fvip_axi4lite_prove] base: Warning: Wire fvip_top.\awprot [1] is used but has no driver.
SBY  1:13:56 [/home/nikhil/projects/axi4lsf/fv/fvip_axi4lite_prove] base: Warning: Wire fvip_top.\awprot [0] is used but has no driver.
SBY  1:13:56 [/home/nikhil/projects/axi4lsf/fv/fvip_axi4lite_prove] base: Warning: Wire fvip_top.\awvalid is used but has no driver.
SBY  1:13:56 [/home/nikhil/projects/axi4lsf/fv/fvip_axi4lite_prove] base: Warning: Wire fvip_top.\wdata [31] is used but has no driver.
SBY  1:13:56 [/home/nikhil/projects/axi4lsf/fv/fvip_axi4lite_prove] base: Warning: Wire fvip_top.\wdata [30] is used but has no driver.
SBY  1:13:56 [/home/nikhil/projects/axi4lsf/fv/fvip_axi4lite_prove] base: Warning: Wire fvip_top.\wdata [29] is used but has no driver.
SBY  1:13:56 [/home/nikhil/projects/axi4lsf/fv/fvip_axi4lite_prove] base: Warning: Wire fvip_top.\wdata [28] is used but has no driver.
SBY  1:13:56 [/home/nikhil/projects/axi4lsf/fv/fvip_axi4lite_prove] base: Warning: Wire fvip_top.\wdata [27] is used but has no driver.
SBY  1:13:56 [/home/nikhil/projects/axi4lsf/fv/fvip_axi4lite_prove] base: Warning: Wire fvip_top.\wdata [26] is used but has no driver.
SBY  1:13:56 [/home/nikhil/projects/axi4lsf/fv/fvip_axi4lite_prove] base: Warning: Wire fvip_top.\wdata [25] is used but has no driver.
SBY  1:13:56 [/home/nikhil/projects/axi4lsf/fv/fvip_axi4lite_prove] base: Warning: Wire fvip_top.\wdata [24] is used but has no driver.
SBY  1:13:56 [/home/nikhil/projects/axi4lsf/fv/fvip_axi4lite_prove] base: Warning: Wire fvip_top.\wdata [23] is used but has no driver.
SBY  1:13:56 [/home/nikhil/projects/axi4lsf/fv/fvip_axi4lite_prove] base: Warning: Wire fvip_top.\wdata [22] is used but has no driver.
SBY  1:13:56 [/home/nikhil/projects/axi4lsf/fv/fvip_axi4lite_prove] base: Warning: Wire fvip_top.\wdata [21] is used but has no driver.
SBY  1:13:56 [/home/nikhil/projects/axi4lsf/fv/fvip_axi4lite_prove] base: Warning: Wire fvip_top.\wdata [20] is used but has no driver.
SBY  1:13:56 [/home/nikhil/projects/axi4lsf/fv/fvip_axi4lite_prove] base: Warning: Wire fvip_top.\wdata [19] is used but has no driver.
SBY  1:13:56 [/home/nikhil/projects/axi4lsf/fv/fvip_axi4lite_prove] base: Warning: Wire fvip_top.\wdata [18] is used but has no driver.
SBY  1:13:56 [/home/nikhil/projects/axi4lsf/fv/fvip_axi4lite_prove] base: Warning: Wire fvip_top.\wdata [17] is used but has no driver.
SBY  1:13:56 [/home/nikhil/projects/axi4lsf/fv/fvip_axi4lite_prove] base: Warning: Wire fvip_top.\wdata [16] is used but has no driver.
SBY  1:13:56 [/home/nikhil/projects/axi4lsf/fv/fvip_axi4lite_prove] base: Warning: Wire fvip_top.\wdata [15] is used but has no driver.
SBY  1:13:56 [/home/nikhil/projects/axi4lsf/fv/fvip_axi4lite_prove] base: Warning: Wire fvip_top.\wdata [14] is used but has no driver.
SBY  1:13:56 [/home/nikhil/projects/axi4lsf/fv/fvip_axi4lite_prove] base: Warning: Wire fvip_top.\wdata [13] is used but has no driver.
SBY  1:13:56 [/home/nikhil/projects/axi4lsf/fv/fvip_axi4lite_prove] base: Warning: Wire fvip_top.\wdata [12] is used but has no driver.
SBY  1:13:56 [/home/nikhil/projects/axi4lsf/fv/fvip_axi4lite_prove] base: Warning: Wire fvip_top.\wdata [11] is used but has no driver.
SBY  1:13:56 [/home/nikhil/projects/axi4lsf/fv/fvip_axi4lite_prove] base: Warning: Wire fvip_top.\wdata [10] is used but has no driver.
SBY  1:13:56 [/home/nikhil/projects/axi4lsf/fv/fvip_axi4lite_prove] base: Warning: Wire fvip_top.\wdata [9] is used but has no driver.
SBY  1:13:56 [/home/nikhil/projects/axi4lsf/fv/fvip_axi4lite_prove] base: Warning: Wire fvip_top.\wdata [8] is used but has no driver.
SBY  1:13:56 [/home/nikhil/projects/axi4lsf/fv/fvip_axi4lite_prove] base: Warning: Wire fvip_top.\wdata [7] is used but has no driver.
SBY  1:13:56 [/home/nikhil/projects/axi4lsf/fv/fvip_axi4lite_prove] base: Warning: Wire fvip_top.\wdata [6] is used but has no driver.
SBY  1:13:56 [/home/nikhil/projects/axi4lsf/fv/fvip_axi4lite_prove] base: Warning: Wire fvip_top.\wdata [5] is used but has no driver.
SBY  1:13:56 [/home/nikhil/projects/axi4lsf/fv/fvip_axi4lite_prove] base: Warning: Wire fvip_top.\wdata [4] is used but has no driver.
SBY  1:13:56 [/home/nikhil/projects/axi4lsf/fv/fvip_axi4lite_prove] base: Warning: Wire fvip_top.\wdata [3] is used but has no driver.
SBY  1:13:56 [/home/nikhil/projects/axi4lsf/fv/fvip_axi4lite_prove] base: Warning: Wire fvip_top.\wdata [2] is used but has no driver.
SBY  1:13:56 [/home/nikhil/projects/axi4lsf/fv/fvip_axi4lite_prove] base: Warning: Wire fvip_top.\wdata [1] is used but has no driver.
SBY  1:13:56 [/home/nikhil/projects/axi4lsf/fv/fvip_axi4lite_prove] base: Warning: Wire fvip_top.\wdata [0] is used but has no driver.
SBY  1:13:56 [/home/nikhil/projects/axi4lsf/fv/fvip_axi4lite_prove] base: Warning: Wire fvip_top.\wstrb [3] is used but has no driver.
SBY  1:13:56 [/home/nikhil/projects/axi4lsf/fv/fvip_axi4lite_prove] base: Warning: Wire fvip_top.\wstrb [2] is used but has no driver.
SBY  1:13:56 [/home/nikhil/projects/axi4lsf/fv/fvip_axi4lite_prove] base: Warning: Wire fvip_top.\wstrb [1] is used but has no driver.
SBY  1:13:56 [/home/nikhil/projects/axi4lsf/fv/fvip_axi4lite_prove] base: Warning: Wire fvip_top.\wstrb [0] is used but has no driver.
SBY  1:13:56 [/home/nikhil/projects/axi4lsf/fv/fvip_axi4lite_prove] base: Warning: Wire fvip_top.\wvalid is used but has no driver.
SBY  1:13:56 [/home/nikhil/projects/axi4lsf/fv/fvip_axi4lite_prove] base: Warning: Wire fvip_top.\bready is used but has no driver.
SBY  1:13:56 [/home/nikhil/projects/axi4lsf/fv/fvip_axi4lite_prove] base: Warning: Wire fvip_top.\araddr [3] is used but has no driver.
SBY  1:13:56 [/home/nikhil/projects/axi4lsf/fv/fvip_axi4lite_prove] base: Warning: Wire fvip_top.\araddr [2] is used but has no driver.
SBY  1:13:56 [/home/nikhil/projects/axi4lsf/fv/fvip_axi4lite_prove] base: Warning: Wire fvip_top.\araddr [1] is used but has no driver.
SBY  1:13:56 [/home/nikhil/projects/axi4lsf/fv/fvip_axi4lite_prove] base: Warning: Wire fvip_top.\araddr [0] is used but has no driver.
SBY  1:13:56 [/home/nikhil/projects/axi4lsf/fv/fvip_axi4lite_prove] base: Warning: Wire fvip_top.\arprot [2] is used but has no driver.
SBY  1:13:56 [/home/nikhil/projects/axi4lsf/fv/fvip_axi4lite_prove] base: Warning: Wire fvip_top.\arprot [1] is used but has no driver.
SBY  1:13:56 [/home/nikhil/projects/axi4lsf/fv/fvip_axi4lite_prove] base: Warning: Wire fvip_top.\arprot [0] is used but has no driver.
SBY  1:13:56 [/home/nikhil/projects/axi4lsf/fv/fvip_axi4lite_prove] base: Warning: Wire fvip_top.\arvalid is used but has no driver.
SBY  1:13:56 [/home/nikhil/projects/axi4lsf/fv/fvip_axi4lite_prove] base: Warning: Wire fvip_top.\rready is used but has no driver.
SBY  1:13:57 [/home/nikhil/projects/axi4lsf/fv/fvip_axi4lite_prove] base: finished (returncode=0)
SBY  1:13:57 [/home/nikhil/projects/axi4lsf/fv/fvip_axi4lite_prove] prep: starting process "cd /home/nikhil/projects/axi4lsf/fv/fvip_axi4lite_prove/model; yosys -ql design_prep.log design_prep.ys"
SBY  1:13:57 [/home/nikhil/projects/axi4lsf/fv/fvip_axi4lite_prove] prep: Warning: Wire fvip_top.\wvalid is used but has no driver.
SBY  1:13:57 [/home/nikhil/projects/axi4lsf/fv/fvip_axi4lite_prove] prep: Warning: Wire fvip_top.\wstrb [3] is used but has no driver.
SBY  1:13:57 [/home/nikhil/projects/axi4lsf/fv/fvip_axi4lite_prove] prep: Warning: Wire fvip_top.\wstrb [2] is used but has no driver.
SBY  1:13:57 [/home/nikhil/projects/axi4lsf/fv/fvip_axi4lite_prove] prep: Warning: Wire fvip_top.\wstrb [1] is used but has no driver.
SBY  1:13:57 [/home/nikhil/projects/axi4lsf/fv/fvip_axi4lite_prove] prep: Warning: Wire fvip_top.\wstrb [0] is used but has no driver.
SBY  1:13:57 [/home/nikhil/projects/axi4lsf/fv/fvip_axi4lite_prove] prep: Warning: Wire fvip_top.\wdata [31] is used but has no driver.
SBY  1:13:57 [/home/nikhil/projects/axi4lsf/fv/fvip_axi4lite_prove] prep: Warning: Wire fvip_top.\wdata [30] is used but has no driver.
SBY  1:13:57 [/home/nikhil/projects/axi4lsf/fv/fvip_axi4lite_prove] prep: Warning: Wire fvip_top.\wdata [29] is used but has no driver.
SBY  1:13:57 [/home/nikhil/projects/axi4lsf/fv/fvip_axi4lite_prove] prep: Warning: Wire fvip_top.\wdata [28] is used but has no driver.
SBY  1:13:57 [/home/nikhil/projects/axi4lsf/fv/fvip_axi4lite_prove] prep: Warning: Wire fvip_top.\wdata [27] is used but has no driver.
SBY  1:13:57 [/home/nikhil/projects/axi4lsf/fv/fvip_axi4lite_prove] prep: Warning: Wire fvip_top.\wdata [26] is used but has no driver.
SBY  1:13:57 [/home/nikhil/projects/axi4lsf/fv/fvip_axi4lite_prove] prep: Warning: Wire fvip_top.\wdata [25] is used but has no driver.
SBY  1:13:57 [/home/nikhil/projects/axi4lsf/fv/fvip_axi4lite_prove] prep: Warning: Wire fvip_top.\wdata [24] is used but has no driver.
SBY  1:13:57 [/home/nikhil/projects/axi4lsf/fv/fvip_axi4lite_prove] prep: Warning: Wire fvip_top.\wdata [23] is used but has no driver.
SBY  1:13:57 [/home/nikhil/projects/axi4lsf/fv/fvip_axi4lite_prove] prep: Warning: Wire fvip_top.\wdata [22] is used but has no driver.
SBY  1:13:57 [/home/nikhil/projects/axi4lsf/fv/fvip_axi4lite_prove] prep: Warning: Wire fvip_top.\wdata [21] is used but has no driver.
SBY  1:13:57 [/home/nikhil/projects/axi4lsf/fv/fvip_axi4lite_prove] prep: Warning: Wire fvip_top.\wdata [20] is used but has no driver.
SBY  1:13:57 [/home/nikhil/projects/axi4lsf/fv/fvip_axi4lite_prove] prep: Warning: Wire fvip_top.\wdata [19] is used but has no driver.
SBY  1:13:57 [/home/nikhil/projects/axi4lsf/fv/fvip_axi4lite_prove] prep: Warning: Wire fvip_top.\wdata [18] is used but has no driver.
SBY  1:13:57 [/home/nikhil/projects/axi4lsf/fv/fvip_axi4lite_prove] prep: Warning: Wire fvip_top.\wdata [17] is used but has no driver.
SBY  1:13:57 [/home/nikhil/projects/axi4lsf/fv/fvip_axi4lite_prove] prep: Warning: Wire fvip_top.\wdata [16] is used but has no driver.
SBY  1:13:57 [/home/nikhil/projects/axi4lsf/fv/fvip_axi4lite_prove] prep: Warning: Wire fvip_top.\wdata [15] is used but has no driver.
SBY  1:13:57 [/home/nikhil/projects/axi4lsf/fv/fvip_axi4lite_prove] prep: Warning: Wire fvip_top.\wdata [14] is used but has no driver.
SBY  1:13:57 [/home/nikhil/projects/axi4lsf/fv/fvip_axi4lite_prove] prep: Warning: Wire fvip_top.\wdata [13] is used but has no driver.
SBY  1:13:57 [/home/nikhil/projects/axi4lsf/fv/fvip_axi4lite_prove] prep: Warning: Wire fvip_top.\wdata [12] is used but has no driver.
SBY  1:13:57 [/home/nikhil/projects/axi4lsf/fv/fvip_axi4lite_prove] prep: Warning: Wire fvip_top.\wdata [11] is used but has no driver.
SBY  1:13:57 [/home/nikhil/projects/axi4lsf/fv/fvip_axi4lite_prove] prep: Warning: Wire fvip_top.\wdata [10] is used but has no driver.
SBY  1:13:57 [/home/nikhil/projects/axi4lsf/fv/fvip_axi4lite_prove] prep: Warning: Wire fvip_top.\wdata [9] is used but has no driver.
SBY  1:13:57 [/home/nikhil/projects/axi4lsf/fv/fvip_axi4lite_prove] prep: Warning: Wire fvip_top.\wdata [8] is used but has no driver.
SBY  1:13:57 [/home/nikhil/projects/axi4lsf/fv/fvip_axi4lite_prove] prep: Warning: Wire fvip_top.\wdata [7] is used but has no driver.
SBY  1:13:57 [/home/nikhil/projects/axi4lsf/fv/fvip_axi4lite_prove] prep: Warning: Wire fvip_top.\wdata [6] is used but has no driver.
SBY  1:13:57 [/home/nikhil/projects/axi4lsf/fv/fvip_axi4lite_prove] prep: Warning: Wire fvip_top.\wdata [5] is used but has no driver.
SBY  1:13:57 [/home/nikhil/projects/axi4lsf/fv/fvip_axi4lite_prove] prep: Warning: Wire fvip_top.\wdata [4] is used but has no driver.
SBY  1:13:57 [/home/nikhil/projects/axi4lsf/fv/fvip_axi4lite_prove] prep: Warning: Wire fvip_top.\wdata [3] is used but has no driver.
SBY  1:13:57 [/home/nikhil/projects/axi4lsf/fv/fvip_axi4lite_prove] prep: Warning: Wire fvip_top.\wdata [2] is used but has no driver.
SBY  1:13:57 [/home/nikhil/projects/axi4lsf/fv/fvip_axi4lite_prove] prep: Warning: Wire fvip_top.\wdata [1] is used but has no driver.
SBY  1:13:57 [/home/nikhil/projects/axi4lsf/fv/fvip_axi4lite_prove] prep: Warning: Wire fvip_top.\wdata [0] is used but has no driver.
SBY  1:13:57 [/home/nikhil/projects/axi4lsf/fv/fvip_axi4lite_prove] prep: Warning: Wire fvip_top.\rready is used but has no driver.
SBY  1:13:57 [/home/nikhil/projects/axi4lsf/fv/fvip_axi4lite_prove] prep: Warning: Wire fvip_top.\bready is used but has no driver.
SBY  1:13:57 [/home/nikhil/projects/axi4lsf/fv/fvip_axi4lite_prove] prep: Warning: Wire fvip_top.\awvalid is used but has no driver.
SBY  1:13:57 [/home/nikhil/projects/axi4lsf/fv/fvip_axi4lite_prove] prep: Warning: Wire fvip_top.\awprot [2] is used but has no driver.
SBY  1:13:57 [/home/nikhil/projects/axi4lsf/fv/fvip_axi4lite_prove] prep: Warning: Wire fvip_top.\awprot [1] is used but has no driver.
SBY  1:13:57 [/home/nikhil/projects/axi4lsf/fv/fvip_axi4lite_prove] prep: Warning: Wire fvip_top.\awprot [0] is used but has no driver.
SBY  1:13:57 [/home/nikhil/projects/axi4lsf/fv/fvip_axi4lite_prove] prep: Warning: Wire fvip_top.\awaddr [3] is used but has no driver.
SBY  1:13:57 [/home/nikhil/projects/axi4lsf/fv/fvip_axi4lite_prove] prep: Warning: Wire fvip_top.\awaddr [2] is used but has no driver.
SBY  1:13:57 [/home/nikhil/projects/axi4lsf/fv/fvip_axi4lite_prove] prep: Warning: Wire fvip_top.\awaddr [1] is used but has no driver.
SBY  1:13:57 [/home/nikhil/projects/axi4lsf/fv/fvip_axi4lite_prove] prep: Warning: Wire fvip_top.\awaddr [0] is used but has no driver.
SBY  1:13:57 [/home/nikhil/projects/axi4lsf/fv/fvip_axi4lite_prove] prep: Warning: Wire fvip_top.\arvalid is used but has no driver.
SBY  1:13:57 [/home/nikhil/projects/axi4lsf/fv/fvip_axi4lite_prove] prep: Warning: Wire fvip_top.\arprot [2] is used but has no driver.
SBY  1:13:57 [/home/nikhil/projects/axi4lsf/fv/fvip_axi4lite_prove] prep: Warning: Wire fvip_top.\arprot [1] is used but has no driver.
SBY  1:13:57 [/home/nikhil/projects/axi4lsf/fv/fvip_axi4lite_prove] prep: Warning: Wire fvip_top.\arprot [0] is used but has no driver.
SBY  1:13:57 [/home/nikhil/projects/axi4lsf/fv/fvip_axi4lite_prove] prep: Warning: Wire fvip_top.\aresetn is used but has no driver.
SBY  1:13:57 [/home/nikhil/projects/axi4lsf/fv/fvip_axi4lite_prove] prep: Warning: Wire fvip_top.\araddr [3] is used but has no driver.
SBY  1:13:57 [/home/nikhil/projects/axi4lsf/fv/fvip_axi4lite_prove] prep: Warning: Wire fvip_top.\araddr [2] is used but has no driver.
SBY  1:13:57 [/home/nikhil/projects/axi4lsf/fv/fvip_axi4lite_prove] prep: Warning: Wire fvip_top.\araddr [1] is used but has no driver.
SBY  1:13:57 [/home/nikhil/projects/axi4lsf/fv/fvip_axi4lite_prove] prep: Warning: Wire fvip_top.\araddr [0] is used but has no driver.
SBY  1:13:57 [/home/nikhil/projects/axi4lsf/fv/fvip_axi4lite_prove] prep: finished (returncode=0)
SBY  1:13:57 [/home/nikhil/projects/axi4lsf/fv/fvip_axi4lite_prove] smt2: starting process "cd /home/nikhil/projects/axi4lsf/fv/fvip_axi4lite_prove/model; yosys -ql design_smt2.log design_smt2.ys"
SBY  1:13:57 [/home/nikhil/projects/axi4lsf/fv/fvip_axi4lite_prove] smt2: finished (returncode=0)
SBY  1:13:57 [/home/nikhil/projects/axi4lsf/fv/fvip_axi4lite_prove] engine_0.basecase: starting process "cd /home/nikhil/projects/axi4lsf/fv/fvip_axi4lite_prove; yosys-smtbmc -s boolector --presat --unroll --noprogress -t 40  --append 0 --dump-vcd engine_0/trace.vcd --dump-yw engine_0/trace.yw --dump-vlogtb engine_0/trace_tb.v --dump-smtc engine_0/trace.smtc model/design_smt2.smt2"
SBY  1:13:57 [/home/nikhil/projects/axi4lsf/fv/fvip_axi4lite_prove] engine_0.induction: starting process "cd /home/nikhil/projects/axi4lsf/fv/fvip_axi4lite_prove; yosys-smtbmc -s boolector --presat --unroll -i --noprogress -t 40  --append 0 --dump-vcd engine_0/trace_induct.vcd --dump-yw engine_0/trace_induct.yw --dump-vlogtb engine_0/trace_induct_tb.v --dump-smtc engine_0/trace_induct.smtc model/design_smt2.smt2"
SBY  1:13:57 [/home/nikhil/projects/axi4lsf/fv/fvip_axi4lite_prove] engine_0.basecase: ##   0:00:00  Solver: boolector
SBY  1:13:57 [/home/nikhil/projects/axi4lsf/fv/fvip_axi4lite_prove] engine_0.induction: ##   0:00:00  Solver: boolector
SBY  1:13:57 [/home/nikhil/projects/axi4lsf/fv/fvip_axi4lite_prove] engine_0.basecase: ##   0:00:00  Checking assumptions in step 0..
SBY  1:13:57 [/home/nikhil/projects/axi4lsf/fv/fvip_axi4lite_prove] engine_0.basecase: ##   0:00:00  Checking assertions in step 0..
SBY  1:13:57 [/home/nikhil/projects/axi4lsf/fv/fvip_axi4lite_prove] engine_0.induction: ##   0:00:00  Trying induction in step 40..
SBY  1:13:57 [/home/nikhil/projects/axi4lsf/fv/fvip_axi4lite_prove] engine_0.basecase: ##   0:00:00  Checking assumptions in step 1..
SBY  1:13:57 [/home/nikhil/projects/axi4lsf/fv/fvip_axi4lite_prove] engine_0.basecase: ##   0:00:00  Checking assertions in step 1..
SBY  1:13:57 [/home/nikhil/projects/axi4lsf/fv/fvip_axi4lite_prove] engine_0.induction: ##   0:00:00  Trying induction in step 39..
SBY  1:13:57 [/home/nikhil/projects/axi4lsf/fv/fvip_axi4lite_prove] engine_0.basecase: ##   0:00:00  Checking assumptions in step 2..
SBY  1:13:57 [/home/nikhil/projects/axi4lsf/fv/fvip_axi4lite_prove] engine_0.basecase: ##   0:00:00  Checking assertions in step 2..
SBY  1:13:57 [/home/nikhil/projects/axi4lsf/fv/fvip_axi4lite_prove] engine_0.induction: ##   0:00:00  Trying induction in step 38..
SBY  1:13:57 [/home/nikhil/projects/axi4lsf/fv/fvip_axi4lite_prove] engine_0.basecase: ##   0:00:00  Checking assumptions in step 3..
SBY  1:13:57 [/home/nikhil/projects/axi4lsf/fv/fvip_axi4lite_prove] engine_0.basecase: ##   0:00:00  Checking assertions in step 3..
SBY  1:13:57 [/home/nikhil/projects/axi4lsf/fv/fvip_axi4lite_prove] engine_0.induction: ##   0:00:00  Trying induction in step 37..
SBY  1:13:57 [/home/nikhil/projects/axi4lsf/fv/fvip_axi4lite_prove] engine_0.basecase: ##   0:00:00  Checking assumptions in step 4..
SBY  1:13:57 [/home/nikhil/projects/axi4lsf/fv/fvip_axi4lite_prove] engine_0.basecase: ##   0:00:00  Checking assertions in step 4..
SBY  1:13:57 [/home/nikhil/projects/axi4lsf/fv/fvip_axi4lite_prove] engine_0.basecase: ##   0:00:00  Checking assumptions in step 5..
SBY  1:13:57 [/home/nikhil/projects/axi4lsf/fv/fvip_axi4lite_prove] engine_0.induction: ##   0:00:00  Trying induction in step 36..
SBY  1:13:57 [/home/nikhil/projects/axi4lsf/fv/fvip_axi4lite_prove] engine_0.basecase: ##   0:00:00  Checking assertions in step 5..
SBY  1:13:57 [/home/nikhil/projects/axi4lsf/fv/fvip_axi4lite_prove] engine_0.basecase: ##   0:00:00  Checking assumptions in step 6..
SBY  1:13:57 [/home/nikhil/projects/axi4lsf/fv/fvip_axi4lite_prove] engine_0.basecase: ##   0:00:00  Checking assertions in step 6..
SBY  1:13:57 [/home/nikhil/projects/axi4lsf/fv/fvip_axi4lite_prove] engine_0.induction: ##   0:00:00  Trying induction in step 35..
SBY  1:13:57 [/home/nikhil/projects/axi4lsf/fv/fvip_axi4lite_prove] engine_0.basecase: ##   0:00:00  Checking assumptions in step 7..
SBY  1:13:57 [/home/nikhil/projects/axi4lsf/fv/fvip_axi4lite_prove] engine_0.basecase: ##   0:00:00  Checking assertions in step 7..
SBY  1:13:57 [/home/nikhil/projects/axi4lsf/fv/fvip_axi4lite_prove] engine_0.induction: ##   0:00:00  Trying induction in step 34..
SBY  1:13:57 [/home/nikhil/projects/axi4lsf/fv/fvip_axi4lite_prove] engine_0.basecase: ##   0:00:00  Checking assumptions in step 8..
SBY  1:13:57 [/home/nikhil/projects/axi4lsf/fv/fvip_axi4lite_prove] engine_0.basecase: ##   0:00:00  Checking assertions in step 8..
SBY  1:13:58 [/home/nikhil/projects/axi4lsf/fv/fvip_axi4lite_prove] engine_0.induction: ##   0:00:00  Trying induction in step 33..
SBY  1:13:58 [/home/nikhil/projects/axi4lsf/fv/fvip_axi4lite_prove] engine_0.basecase: ##   0:00:00  Checking assumptions in step 9..
SBY  1:13:58 [/home/nikhil/projects/axi4lsf/fv/fvip_axi4lite_prove] engine_0.basecase: ##   0:00:00  Checking assertions in step 9..
SBY  1:13:58 [/home/nikhil/projects/axi4lsf/fv/fvip_axi4lite_prove] engine_0.induction: ##   0:00:00  Trying induction in step 32..
SBY  1:13:58 [/home/nikhil/projects/axi4lsf/fv/fvip_axi4lite_prove] engine_0.basecase: ##   0:00:00  Checking assumptions in step 10..
SBY  1:13:58 [/home/nikhil/projects/axi4lsf/fv/fvip_axi4lite_prove] engine_0.basecase: ##   0:00:01  Checking assertions in step 10..
SBY  1:13:58 [/home/nikhil/projects/axi4lsf/fv/fvip_axi4lite_prove] engine_0.induction: ##   0:00:01  Trying induction in step 31..
SBY  1:13:58 [/home/nikhil/projects/axi4lsf/fv/fvip_axi4lite_prove] engine_0.basecase: ##   0:00:01  Checking assumptions in step 11..
SBY  1:13:58 [/home/nikhil/projects/axi4lsf/fv/fvip_axi4lite_prove] engine_0.basecase: ##   0:00:01  Checking assertions in step 11..
SBY  1:13:58 [/home/nikhil/projects/axi4lsf/fv/fvip_axi4lite_prove] engine_0.induction: ##   0:00:01  Trying induction in step 30..
SBY  1:13:58 [/home/nikhil/projects/axi4lsf/fv/fvip_axi4lite_prove] engine_0.induction: ##   0:00:01  Trying induction in step 29..
SBY  1:13:58 [/home/nikhil/projects/axi4lsf/fv/fvip_axi4lite_prove] engine_0.basecase: ##   0:00:01  Checking assumptions in step 12..
SBY  1:13:58 [/home/nikhil/projects/axi4lsf/fv/fvip_axi4lite_prove] engine_0.basecase: ##   0:00:01  Checking assertions in step 12..
SBY  1:13:59 [/home/nikhil/projects/axi4lsf/fv/fvip_axi4lite_prove] engine_0.induction: ##   0:00:01  Trying induction in step 28..
SBY  1:13:59 [/home/nikhil/projects/axi4lsf/fv/fvip_axi4lite_prove] engine_0.basecase: ##   0:00:01  Checking assumptions in step 13..
SBY  1:13:59 [/home/nikhil/projects/axi4lsf/fv/fvip_axi4lite_prove] engine_0.basecase: ##   0:00:01  Checking assertions in step 13..
SBY  1:13:59 [/home/nikhil/projects/axi4lsf/fv/fvip_axi4lite_prove] engine_0.induction: ##   0:00:02  Trying induction in step 27..
SBY  1:13:59 [/home/nikhil/projects/axi4lsf/fv/fvip_axi4lite_prove] engine_0.basecase: ##   0:00:02  Checking assumptions in step 14..
SBY  1:13:59 [/home/nikhil/projects/axi4lsf/fv/fvip_axi4lite_prove] engine_0.basecase: ##   0:00:02  Checking assertions in step 14..
SBY  1:13:59 [/home/nikhil/projects/axi4lsf/fv/fvip_axi4lite_prove] engine_0.induction: ##   0:00:02  Trying induction in step 26..
SBY  1:13:59 [/home/nikhil/projects/axi4lsf/fv/fvip_axi4lite_prove] engine_0.basecase: ##   0:00:02  Checking assumptions in step 15..
SBY  1:13:59 [/home/nikhil/projects/axi4lsf/fv/fvip_axi4lite_prove] engine_0.basecase: ##   0:00:02  Checking assertions in step 15..
SBY  1:13:59 [/home/nikhil/projects/axi4lsf/fv/fvip_axi4lite_prove] engine_0.induction: ##   0:00:02  Trying induction in step 25..
SBY  1:14:00 [/home/nikhil/projects/axi4lsf/fv/fvip_axi4lite_prove] engine_0.basecase: ##   0:00:02  Checking assumptions in step 16..
SBY  1:14:00 [/home/nikhil/projects/axi4lsf/fv/fvip_axi4lite_prove] engine_0.basecase: ##   0:00:03  Checking assertions in step 16..
SBY  1:14:00 [/home/nikhil/projects/axi4lsf/fv/fvip_axi4lite_prove] engine_0.induction: ##   0:00:03  Trying induction in step 24..
SBY  1:14:00 [/home/nikhil/projects/axi4lsf/fv/fvip_axi4lite_prove] engine_0.basecase: ##   0:00:03  Checking assumptions in step 17..
SBY  1:14:00 [/home/nikhil/projects/axi4lsf/fv/fvip_axi4lite_prove] engine_0.basecase: ##   0:00:03  Checking assertions in step 17..
SBY  1:14:00 [/home/nikhil/projects/axi4lsf/fv/fvip_axi4lite_prove] engine_0.induction: ##   0:00:03  Trying induction in step 23..
SBY  1:14:00 [/home/nikhil/projects/axi4lsf/fv/fvip_axi4lite_prove] engine_0.basecase: ##   0:00:03  Checking assumptions in step 18..
SBY  1:14:01 [/home/nikhil/projects/axi4lsf/fv/fvip_axi4lite_prove] engine_0.basecase: ##   0:00:03  Checking assertions in step 18..
SBY  1:14:01 [/home/nikhil/projects/axi4lsf/fv/fvip_axi4lite_prove] engine_0.induction: ##   0:00:03  Trying induction in step 22..
SBY  1:14:01 [/home/nikhil/projects/axi4lsf/fv/fvip_axi4lite_prove] engine_0.induction: ##   0:00:04  Trying induction in step 21..
SBY  1:14:01 [/home/nikhil/projects/axi4lsf/fv/fvip_axi4lite_prove] engine_0.basecase: ##   0:00:04  Checking assumptions in step 19..
SBY  1:14:01 [/home/nikhil/projects/axi4lsf/fv/fvip_axi4lite_prove] engine_0.basecase: ##   0:00:04  Checking assertions in step 19..
SBY  1:14:02 [/home/nikhil/projects/axi4lsf/fv/fvip_axi4lite_prove] engine_0.induction: ##   0:00:04  Trying induction in step 20..
SBY  1:14:02 [/home/nikhil/projects/axi4lsf/fv/fvip_axi4lite_prove] engine_0.basecase: ##   0:00:05  Checking assumptions in step 20..
SBY  1:14:02 [/home/nikhil/projects/axi4lsf/fv/fvip_axi4lite_prove] engine_0.basecase: ##   0:00:05  Checking assertions in step 20..
SBY  1:14:02 [/home/nikhil/projects/axi4lsf/fv/fvip_axi4lite_prove] engine_0.induction: ##   0:00:05  Trying induction in step 19..
SBY  1:14:03 [/home/nikhil/projects/axi4lsf/fv/fvip_axi4lite_prove] engine_0.basecase: ##   0:00:05  Checking assumptions in step 21..
SBY  1:14:03 [/home/nikhil/projects/axi4lsf/fv/fvip_axi4lite_prove] engine_0.induction: ##   0:00:05  Trying induction in step 18..
SBY  1:14:03 [/home/nikhil/projects/axi4lsf/fv/fvip_axi4lite_prove] engine_0.basecase: ##   0:00:05  Checking assertions in step 21..
SBY  1:14:03 [/home/nikhil/projects/axi4lsf/fv/fvip_axi4lite_prove] engine_0.basecase: ##   0:00:06  Checking assumptions in step 22..
SBY  1:14:03 [/home/nikhil/projects/axi4lsf/fv/fvip_axi4lite_prove] engine_0.induction: ##   0:00:06  Trying induction in step 17..
SBY  1:14:03 [/home/nikhil/projects/axi4lsf/fv/fvip_axi4lite_prove] engine_0.basecase: ##   0:00:06  Checking assertions in step 22..
SBY  1:14:04 [/home/nikhil/projects/axi4lsf/fv/fvip_axi4lite_prove] engine_0.induction: ##   0:00:07  Trying induction in step 16..
SBY  1:14:04 [/home/nikhil/projects/axi4lsf/fv/fvip_axi4lite_prove] engine_0.basecase: ##   0:00:07  Checking assumptions in step 23..
SBY  1:14:04 [/home/nikhil/projects/axi4lsf/fv/fvip_axi4lite_prove] engine_0.basecase: ##   0:00:07  Checking assertions in step 23..
SBY  1:14:04 [/home/nikhil/projects/axi4lsf/fv/fvip_axi4lite_prove] engine_0.induction: ##   0:00:07  Trying induction in step 15..
SBY  1:14:05 [/home/nikhil/projects/axi4lsf/fv/fvip_axi4lite_prove] engine_0.basecase: ##   0:00:08  Checking assumptions in step 24..
SBY  1:14:05 [/home/nikhil/projects/axi4lsf/fv/fvip_axi4lite_prove] engine_0.induction: ##   0:00:08  Trying induction in step 14..
SBY  1:14:05 [/home/nikhil/projects/axi4lsf/fv/fvip_axi4lite_prove] engine_0.basecase: ##   0:00:08  Checking assertions in step 24..
SBY  1:14:06 [/home/nikhil/projects/axi4lsf/fv/fvip_axi4lite_prove] engine_0.induction: ##   0:00:08  Trying induction in step 13..
SBY  1:14:06 [/home/nikhil/projects/axi4lsf/fv/fvip_axi4lite_prove] engine_0.basecase: ##   0:00:09  Checking assumptions in step 25..
SBY  1:14:06 [/home/nikhil/projects/axi4lsf/fv/fvip_axi4lite_prove] engine_0.basecase: ##   0:00:09  Checking assertions in step 25..
SBY  1:14:06 [/home/nikhil/projects/axi4lsf/fv/fvip_axi4lite_prove] engine_0.induction: ##   0:00:09  Trying induction in step 12..
SBY  1:14:07 [/home/nikhil/projects/axi4lsf/fv/fvip_axi4lite_prove] engine_0.basecase: ##   0:00:10  Checking assumptions in step 26..
SBY  1:14:07 [/home/nikhil/projects/axi4lsf/fv/fvip_axi4lite_prove] engine_0.induction: ##   0:00:10  Trying induction in step 11..
SBY  1:14:07 [/home/nikhil/projects/axi4lsf/fv/fvip_axi4lite_prove] engine_0.basecase: ##   0:00:10  Checking assertions in step 26..
SBY  1:14:08 [/home/nikhil/projects/axi4lsf/fv/fvip_axi4lite_prove] engine_0.induction: ##   0:00:11  Trying induction in step 10..
SBY  1:14:08 [/home/nikhil/projects/axi4lsf/fv/fvip_axi4lite_prove] engine_0.basecase: ##   0:00:11  Checking assumptions in step 27..
SBY  1:14:09 [/home/nikhil/projects/axi4lsf/fv/fvip_axi4lite_prove] engine_0.basecase: ##   0:00:11  Checking assertions in step 27..
SBY  1:14:09 [/home/nikhil/projects/axi4lsf/fv/fvip_axi4lite_prove] engine_0.induction: ##   0:00:12  Trying induction in step 9..
SBY  1:14:10 [/home/nikhil/projects/axi4lsf/fv/fvip_axi4lite_prove] engine_0.basecase: ##   0:00:12  Checking assumptions in step 28..
SBY  1:14:10 [/home/nikhil/projects/axi4lsf/fv/fvip_axi4lite_prove] engine_0.induction: ##   0:00:13  Trying induction in step 8..
SBY  1:14:10 [/home/nikhil/projects/axi4lsf/fv/fvip_axi4lite_prove] engine_0.basecase: ##   0:00:13  Checking assertions in step 28..
SBY  1:14:11 [/home/nikhil/projects/axi4lsf/fv/fvip_axi4lite_prove] engine_0.induction: ##   0:00:14  Trying induction in step 7..
SBY  1:14:12 [/home/nikhil/projects/axi4lsf/fv/fvip_axi4lite_prove] engine_0.basecase: ##   0:00:14  Checking assumptions in step 29..
SBY  1:14:12 [/home/nikhil/projects/axi4lsf/fv/fvip_axi4lite_prove] engine_0.basecase: ##   0:00:15  Checking assertions in step 29..
SBY  1:14:12 [/home/nikhil/projects/axi4lsf/fv/fvip_axi4lite_prove] engine_0.induction: ##   0:00:15  Trying induction in step 6..
SBY  1:14:14 [/home/nikhil/projects/axi4lsf/fv/fvip_axi4lite_prove] engine_0.basecase: ##   0:00:16  Checking assumptions in step 30..
SBY  1:14:14 [/home/nikhil/projects/axi4lsf/fv/fvip_axi4lite_prove] engine_0.basecase: ##   0:00:17  Checking assertions in step 30..
SBY  1:14:15 [/home/nikhil/projects/axi4lsf/fv/fvip_axi4lite_prove] engine_0.induction: ##   0:00:18  Trying induction in step 5..
SBY  1:14:16 [/home/nikhil/projects/axi4lsf/fv/fvip_axi4lite_prove] engine_0.basecase: ##   0:00:19  Checking assumptions in step 31..
SBY  1:14:16 [/home/nikhil/projects/axi4lsf/fv/fvip_axi4lite_prove] engine_0.basecase: ##   0:00:19  Checking assertions in step 31..
SBY  1:14:17 [/home/nikhil/projects/axi4lsf/fv/fvip_axi4lite_prove] engine_0.induction: ##   0:00:20  Trying induction in step 4..
SBY  1:14:18 [/home/nikhil/projects/axi4lsf/fv/fvip_axi4lite_prove] engine_0.basecase: ##   0:00:21  Checking assumptions in step 32..
SBY  1:14:18 [/home/nikhil/projects/axi4lsf/fv/fvip_axi4lite_prove] engine_0.induction: ##   0:00:21  Trying induction in step 3..
SBY  1:14:19 [/home/nikhil/projects/axi4lsf/fv/fvip_axi4lite_prove] engine_0.basecase: ##   0:00:21  Checking assertions in step 32..
SBY  1:14:20 [/home/nikhil/projects/axi4lsf/fv/fvip_axi4lite_prove] engine_0.induction: ##   0:00:23  Trying induction in step 2..
SBY  1:14:21 [/home/nikhil/projects/axi4lsf/fv/fvip_axi4lite_prove] engine_0.basecase: ##   0:00:23  Checking assumptions in step 33..
SBY  1:14:21 [/home/nikhil/projects/axi4lsf/fv/fvip_axi4lite_prove] engine_0.basecase: ##   0:00:24  Checking assertions in step 33..
SBY  1:14:22 [/home/nikhil/projects/axi4lsf/fv/fvip_axi4lite_prove] engine_0.induction: ##   0:00:25  Trying induction in step 1..
SBY  1:14:24 [/home/nikhil/projects/axi4lsf/fv/fvip_axi4lite_prove] engine_0.basecase: ##   0:00:27  Checking assumptions in step 34..
SBY  1:14:24 [/home/nikhil/projects/axi4lsf/fv/fvip_axi4lite_prove] engine_0.induction: ##   0:00:27  Trying induction in step 0..
SBY  1:14:24 [/home/nikhil/projects/axi4lsf/fv/fvip_axi4lite_prove] engine_0.basecase: ##   0:00:27  Checking assertions in step 34..
SBY  1:14:26 [/home/nikhil/projects/axi4lsf/fv/fvip_axi4lite_prove] engine_0.induction: ##   0:00:29  Temporal induction failed!
SBY  1:14:26 [/home/nikhil/projects/axi4lsf/fv/fvip_axi4lite_prove] engine_0.induction: ##   0:00:29  Assert failed in fvip_top.u_props: /home/nikhil/projects/axi4lsf/fv/fvip_axi4lite_props.sv:454.13-454.28 (_witness_.assert_assert__home_nikhil_projects_axi4lsf_fv_fvip_axi4lite_props_sv_454_607)
SBY  1:14:26 [/home/nikhil/projects/axi4lsf/fv/fvip_axi4lite_prove] engine_0.induction: ##   0:00:29  Writing trace to VCD file: engine_0/trace_induct.vcd
SBY  1:14:26 [/home/nikhil/projects/axi4lsf/fv/fvip_axi4lite_prove] engine_0.basecase: ##   0:00:29  Checking assumptions in step 35..
SBY  1:14:26 [/home/nikhil/projects/axi4lsf/fv/fvip_axi4lite_prove] engine_0.basecase: ##   0:00:29  Checking assertions in step 35..
SBY  1:14:26 [/home/nikhil/projects/axi4lsf/fv/fvip_axi4lite_prove] engine_0.induction: ##   0:00:29  Writing trace to Verilog testbench: engine_0/trace_induct_tb.v
SBY  1:14:26 [/home/nikhil/projects/axi4lsf/fv/fvip_axi4lite_prove] engine_0.induction: ##   0:00:29  Writing trace to constraints file: engine_0/trace_induct.smtc
SBY  1:14:26 [/home/nikhil/projects/axi4lsf/fv/fvip_axi4lite_prove] engine_0.induction: ##   0:00:29  Writing trace to Yosys witness file: engine_0/trace_induct.yw
SBY  1:14:28 [/home/nikhil/projects/axi4lsf/fv/fvip_axi4lite_prove] engine_0.basecase: ##   0:00:31  Checking assumptions in step 36..
SBY  1:14:28 [/home/nikhil/projects/axi4lsf/fv/fvip_axi4lite_prove] engine_0.induction: ##   0:00:31  Status: failed
SBY  1:14:28 [/home/nikhil/projects/axi4lsf/fv/fvip_axi4lite_prove] engine_0.induction: finished (returncode=1)
SBY  1:14:28 [/home/nikhil/projects/axi4lsf/fv/fvip_axi4lite_prove] engine_0.induction: Status returned by engine for induction: FAIL
SBY  1:14:28 [/home/nikhil/projects/axi4lsf/fv/fvip_axi4lite_prove] engine_0.basecase: ##   0:00:31  Checking assertions in step 36..
SBY  1:14:31 [/home/nikhil/projects/axi4lsf/fv/fvip_axi4lite_prove] engine_0.basecase: ##   0:00:33  Checking assumptions in step 37..
SBY  1:14:31 [/home/nikhil/projects/axi4lsf/fv/fvip_axi4lite_prove] engine_0.basecase: ##   0:00:34  Checking assertions in step 37..
SBY  1:14:33 [/home/nikhil/projects/axi4lsf/fv/fvip_axi4lite_prove] engine_0.basecase: ##   0:00:36  Checking assumptions in step 38..
SBY  1:14:34 [/home/nikhil/projects/axi4lsf/fv/fvip_axi4lite_prove] engine_0.basecase: ##   0:00:36  Checking assertions in step 38..
SBY  1:14:35 [/home/nikhil/projects/axi4lsf/fv/fvip_axi4lite_prove] engine_0.basecase: ##   0:00:38  Checking assumptions in step 39..
SBY  1:14:36 [/home/nikhil/projects/axi4lsf/fv/fvip_axi4lite_prove] engine_0.basecase: ##   0:00:39  Checking assertions in step 39..
SBY  1:14:38 [/home/nikhil/projects/axi4lsf/fv/fvip_axi4lite_prove] engine_0.basecase: ##   0:00:41  Status: passed
SBY  1:14:38 [/home/nikhil/projects/axi4lsf/fv/fvip_axi4lite_prove] engine_0.basecase: finished (returncode=0)
SBY  1:14:38 [/home/nikhil/projects/axi4lsf/fv/fvip_axi4lite_prove] engine_0.basecase: Status returned by engine for basecase: pass
SBY  1:14:38 [/home/nikhil/projects/axi4lsf/fv/fvip_axi4lite_prove] summary: Elapsed clock time [H:MM:SS (secs)]: 0:00:41 (41)
SBY  1:14:38 [/home/nikhil/projects/axi4lsf/fv/fvip_axi4lite_prove] summary: Elapsed process time [H:MM:SS (secs)]: 0:01:13 (73)
SBY  1:14:38 [/home/nikhil/projects/axi4lsf/fv/fvip_axi4lite_prove] summary: engine_0 (smtbmc --unroll boolector) returned pass for basecase
SBY  1:14:38 [/home/nikhil/projects/axi4lsf/fv/fvip_axi4lite_prove] summary: engine_0 (smtbmc --unroll boolector) returned FAIL for induction
SBY  1:14:38 [/home/nikhil/projects/axi4lsf/fv/fvip_axi4lite_prove] summary: counterexample trace [induction]: /home/nikhil/projects/axi4lsf/fv/fvip_axi4lite_prove/engine_0/trace_induct.vcd
SBY  1:14:38 [/home/nikhil/projects/axi4lsf/fv/fvip_axi4lite_prove] summary:   failed assertion fvip_top.u_props._witness_.assert_assert__home_nikhil_projects_axi4lsf_fv_fvip_axi4lite_props_sv_454_607 at /home/nikhil/projects/axi4lsf/fv/fvip_axi4lite_props.sv:454.13-454.28
SBY  1:14:38 [/home/nikhil/projects/axi4lsf/fv/fvip_axi4lite_prove] DONE (UNKNOWN, rc=4)
