SBY  0:06:34 [/home/nikhil/projects/axi4lsf/fv/fvip_axi4lite_bmc] Removing directory '/home/nikhil/projects/axi4lsf/fv/fvip_axi4lite_bmc'.
SBY  0:06:34 [/home/nikhil/projects/axi4lsf/fv/fvip_axi4lite_bmc] Copy '/home/nikhil/projects/axi4lsf/rtl/axi4lite_slave_example.sv' to '/home/nikhil/projects/axi4lsf/fv/fvip_axi4lite_bmc/src/axi4lite_slave_example.sv'.
SBY  0:06:34 [/home/nikhil/projects/axi4lsf/fv/fvip_axi4lite_bmc] Copy '/home/nikhil/projects/axi4lsf/fv/fvip_axi4lite_props.sv' to '/home/nikhil/projects/axi4lsf/fv/fvip_axi4lite_bmc/src/fvip_axi4lite_props.sv'.
SBY  0:06:34 [/home/nikhil/projects/axi4lsf/fv/fvip_axi4lite_bmc] Copy '/home/nikhil/projects/axi4lsf/fv/fvip_top.sv' to '/home/nikhil/projects/axi4lsf/fv/fvip_axi4lite_bmc/src/fvip_top.sv'.
SBY  0:06:34 [/home/nikhil/projects/axi4lsf/fv/fvip_axi4lite_bmc] engine_0: smtbmc --unroll boolector
SBY  0:06:34 [/home/nikhil/projects/axi4lsf/fv/fvip_axi4lite_bmc] base: starting process "cd /home/nikhil/projects/axi4lsf/fv/fvip_axi4lite_bmc/src; yosys -ql ../model/design.log ../model/design.ys"
SBY  0:06:34 [/home/nikhil/projects/axi4lsf/fv/fvip_axi4lite_bmc] base: Warning: Wire fvip_top.\aresetn is used but has no driver.
SBY  0:06:34 [/home/nikhil/projects/axi4lsf/fv/fvip_axi4lite_bmc] base: Warning: Wire fvip_top.\awaddr [3] is used but has no driver.
SBY  0:06:34 [/home/nikhil/projects/axi4lsf/fv/fvip_axi4lite_bmc] base: Warning: Wire fvip_top.\awaddr [2] is used but has no driver.
SBY  0:06:34 [/home/nikhil/projects/axi4lsf/fv/fvip_axi4lite_bmc] base: Warning: Wire fvip_top.\awaddr [1] is used but has no driver.
SBY  0:06:34 [/home/nikhil/projects/axi4lsf/fv/fvip_axi4lite_bmc] base: Warning: Wire fvip_top.\awaddr [0] is used but has no driver.
SBY  0:06:34 [/home/nikhil/projects/axi4lsf/fv/fvip_axi4lite_bmc] base: Warning: Wire fvip_top.\awprot [2] is used but has no driver.
SBY  0:06:34 [/home/nikhil/projects/axi4lsf/fv/fvip_axi4lite_bmc] base: Warning: Wire fvip_top.\awprot [1] is used but has no driver.
SBY  0:06:34 [/home/nikhil/projects/axi4lsf/fv/fvip_axi4lite_bmc] base: Warning: Wire fvip_top.\awprot [0] is used but has no driver.
SBY  0:06:34 [/home/nikhil/projects/axi4lsf/fv/fvip_axi4lite_bmc] base: Warning: Wire fvip_top.\awvalid is used but has no driver.
SBY  0:06:34 [/home/nikhil/projects/axi4lsf/fv/fvip_axi4lite_bmc] base: Warning: Wire fvip_top.\wdata [31] is used but has no driver.
SBY  0:06:34 [/home/nikhil/projects/axi4lsf/fv/fvip_axi4lite_bmc] base: Warning: Wire fvip_top.\wdata [30] is used but has no driver.
SBY  0:06:34 [/home/nikhil/projects/axi4lsf/fv/fvip_axi4lite_bmc] base: Warning: Wire fvip_top.\wdata [29] is used but has no driver.
SBY  0:06:34 [/home/nikhil/projects/axi4lsf/fv/fvip_axi4lite_bmc] base: Warning: Wire fvip_top.\wdata [28] is used but has no driver.
SBY  0:06:34 [/home/nikhil/projects/axi4lsf/fv/fvip_axi4lite_bmc] base: Warning: Wire fvip_top.\wdata [27] is used but has no driver.
SBY  0:06:34 [/home/nikhil/projects/axi4lsf/fv/fvip_axi4lite_bmc] base: Warning: Wire fvip_top.\wdata [26] is used but has no driver.
SBY  0:06:34 [/home/nikhil/projects/axi4lsf/fv/fvip_axi4lite_bmc] base: Warning: Wire fvip_top.\wdata [25] is used but has no driver.
SBY  0:06:34 [/home/nikhil/projects/axi4lsf/fv/fvip_axi4lite_bmc] base: Warning: Wire fvip_top.\wdata [24] is used but has no driver.
SBY  0:06:34 [/home/nikhil/projects/axi4lsf/fv/fvip_axi4lite_bmc] base: Warning: Wire fvip_top.\wdata [23] is used but has no driver.
SBY  0:06:34 [/home/nikhil/projects/axi4lsf/fv/fvip_axi4lite_bmc] base: Warning: Wire fvip_top.\wdata [22] is used but has no driver.
SBY  0:06:34 [/home/nikhil/projects/axi4lsf/fv/fvip_axi4lite_bmc] base: Warning: Wire fvip_top.\wdata [21] is used but has no driver.
SBY  0:06:34 [/home/nikhil/projects/axi4lsf/fv/fvip_axi4lite_bmc] base: Warning: Wire fvip_top.\wdata [20] is used but has no driver.
SBY  0:06:34 [/home/nikhil/projects/axi4lsf/fv/fvip_axi4lite_bmc] base: Warning: Wire fvip_top.\wdata [19] is used but has no driver.
SBY  0:06:34 [/home/nikhil/projects/axi4lsf/fv/fvip_axi4lite_bmc] base: Warning: Wire fvip_top.\wdata [18] is used but has no driver.
SBY  0:06:34 [/home/nikhil/projects/axi4lsf/fv/fvip_axi4lite_bmc] base: Warning: Wire fvip_top.\wdata [17] is used but has no driver.
SBY  0:06:34 [/home/nikhil/projects/axi4lsf/fv/fvip_axi4lite_bmc] base: Warning: Wire fvip_top.\wdata [16] is used but has no driver.
SBY  0:06:34 [/home/nikhil/projects/axi4lsf/fv/fvip_axi4lite_bmc] base: Warning: Wire fvip_top.\wdata [15] is used but has no driver.
SBY  0:06:34 [/home/nikhil/projects/axi4lsf/fv/fvip_axi4lite_bmc] base: Warning: Wire fvip_top.\wdata [14] is used but has no driver.
SBY  0:06:34 [/home/nikhil/projects/axi4lsf/fv/fvip_axi4lite_bmc] base: Warning: Wire fvip_top.\wdata [13] is used but has no driver.
SBY  0:06:34 [/home/nikhil/projects/axi4lsf/fv/fvip_axi4lite_bmc] base: Warning: Wire fvip_top.\wdata [12] is used but has no driver.
SBY  0:06:34 [/home/nikhil/projects/axi4lsf/fv/fvip_axi4lite_bmc] base: Warning: Wire fvip_top.\wdata [11] is used but has no driver.
SBY  0:06:34 [/home/nikhil/projects/axi4lsf/fv/fvip_axi4lite_bmc] base: Warning: Wire fvip_top.\wdata [10] is used but has no driver.
SBY  0:06:34 [/home/nikhil/projects/axi4lsf/fv/fvip_axi4lite_bmc] base: Warning: Wire fvip_top.\wdata [9] is used but has no driver.
SBY  0:06:34 [/home/nikhil/projects/axi4lsf/fv/fvip_axi4lite_bmc] base: Warning: Wire fvip_top.\wdata [8] is used but has no driver.
SBY  0:06:34 [/home/nikhil/projects/axi4lsf/fv/fvip_axi4lite_bmc] base: Warning: Wire fvip_top.\wdata [7] is used but has no driver.
SBY  0:06:34 [/home/nikhil/projects/axi4lsf/fv/fvip_axi4lite_bmc] base: Warning: Wire fvip_top.\wdata [6] is used but has no driver.
SBY  0:06:34 [/home/nikhil/projects/axi4lsf/fv/fvip_axi4lite_bmc] base: Warning: Wire fvip_top.\wdata [5] is used but has no driver.
SBY  0:06:34 [/home/nikhil/projects/axi4lsf/fv/fvip_axi4lite_bmc] base: Warning: Wire fvip_top.\wdata [4] is used but has no driver.
SBY  0:06:34 [/home/nikhil/projects/axi4lsf/fv/fvip_axi4lite_bmc] base: Warning: Wire fvip_top.\wdata [3] is used but has no driver.
SBY  0:06:34 [/home/nikhil/projects/axi4lsf/fv/fvip_axi4lite_bmc] base: Warning: Wire fvip_top.\wdata [2] is used but has no driver.
SBY  0:06:34 [/home/nikhil/projects/axi4lsf/fv/fvip_axi4lite_bmc] base: Warning: Wire fvip_top.\wdata [1] is used but has no driver.
SBY  0:06:34 [/home/nikhil/projects/axi4lsf/fv/fvip_axi4lite_bmc] base: Warning: Wire fvip_top.\wdata [0] is used but has no driver.
SBY  0:06:34 [/home/nikhil/projects/axi4lsf/fv/fvip_axi4lite_bmc] base: Warning: Wire fvip_top.\wstrb [3] is used but has no driver.
SBY  0:06:34 [/home/nikhil/projects/axi4lsf/fv/fvip_axi4lite_bmc] base: Warning: Wire fvip_top.\wstrb [2] is used but has no driver.
SBY  0:06:34 [/home/nikhil/projects/axi4lsf/fv/fvip_axi4lite_bmc] base: Warning: Wire fvip_top.\wstrb [1] is used but has no driver.
SBY  0:06:34 [/home/nikhil/projects/axi4lsf/fv/fvip_axi4lite_bmc] base: Warning: Wire fvip_top.\wstrb [0] is used but has no driver.
SBY  0:06:34 [/home/nikhil/projects/axi4lsf/fv/fvip_axi4lite_bmc] base: Warning: Wire fvip_top.\wvalid is used but has no driver.
SBY  0:06:34 [/home/nikhil/projects/axi4lsf/fv/fvip_axi4lite_bmc] base: Warning: Wire fvip_top.\bready is used but has no driver.
SBY  0:06:34 [/home/nikhil/projects/axi4lsf/fv/fvip_axi4lite_bmc] base: Warning: Wire fvip_top.\araddr [3] is used but has no driver.
SBY  0:06:34 [/home/nikhil/projects/axi4lsf/fv/fvip_axi4lite_bmc] base: Warning: Wire fvip_top.\araddr [2] is used but has no driver.
SBY  0:06:34 [/home/nikhil/projects/axi4lsf/fv/fvip_axi4lite_bmc] base: Warning: Wire fvip_top.\araddr [1] is used but has no driver.
SBY  0:06:34 [/home/nikhil/projects/axi4lsf/fv/fvip_axi4lite_bmc] base: Warning: Wire fvip_top.\araddr [0] is used but has no driver.
SBY  0:06:34 [/home/nikhil/projects/axi4lsf/fv/fvip_axi4lite_bmc] base: Warning: Wire fvip_top.\arprot [2] is used but has no driver.
SBY  0:06:34 [/home/nikhil/projects/axi4lsf/fv/fvip_axi4lite_bmc] base: Warning: Wire fvip_top.\arprot [1] is used but has no driver.
SBY  0:06:34 [/home/nikhil/projects/axi4lsf/fv/fvip_axi4lite_bmc] base: Warning: Wire fvip_top.\arprot [0] is used but has no driver.
SBY  0:06:34 [/home/nikhil/projects/axi4lsf/fv/fvip_axi4lite_bmc] base: Warning: Wire fvip_top.\arvalid is used but has no driver.
SBY  0:06:34 [/home/nikhil/projects/axi4lsf/fv/fvip_axi4lite_bmc] base: Warning: Wire fvip_top.\rready is used but has no driver.
SBY  0:06:34 [/home/nikhil/projects/axi4lsf/fv/fvip_axi4lite_bmc] base: finished (returncode=0)
SBY  0:06:34 [/home/nikhil/projects/axi4lsf/fv/fvip_axi4lite_bmc] prep: starting process "cd /home/nikhil/projects/axi4lsf/fv/fvip_axi4lite_bmc/model; yosys -ql design_prep.log design_prep.ys"
SBY  0:06:34 [/home/nikhil/projects/axi4lsf/fv/fvip_axi4lite_bmc] prep: Warning: Wire fvip_top.\wvalid is used but has no driver.
SBY  0:06:34 [/home/nikhil/projects/axi4lsf/fv/fvip_axi4lite_bmc] prep: Warning: Wire fvip_top.\wstrb [3] is used but has no driver.
SBY  0:06:34 [/home/nikhil/projects/axi4lsf/fv/fvip_axi4lite_bmc] prep: Warning: Wire fvip_top.\wstrb [2] is used but has no driver.
SBY  0:06:34 [/home/nikhil/projects/axi4lsf/fv/fvip_axi4lite_bmc] prep: Warning: Wire fvip_top.\wstrb [1] is used but has no driver.
SBY  0:06:34 [/home/nikhil/projects/axi4lsf/fv/fvip_axi4lite_bmc] prep: Warning: Wire fvip_top.\wstrb [0] is used but has no driver.
SBY  0:06:34 [/home/nikhil/projects/axi4lsf/fv/fvip_axi4lite_bmc] prep: Warning: Wire fvip_top.\wdata [31] is used but has no driver.
SBY  0:06:34 [/home/nikhil/projects/axi4lsf/fv/fvip_axi4lite_bmc] prep: Warning: Wire fvip_top.\wdata [30] is used but has no driver.
SBY  0:06:34 [/home/nikhil/projects/axi4lsf/fv/fvip_axi4lite_bmc] prep: Warning: Wire fvip_top.\wdata [29] is used but has no driver.
SBY  0:06:34 [/home/nikhil/projects/axi4lsf/fv/fvip_axi4lite_bmc] prep: Warning: Wire fvip_top.\wdata [28] is used but has no driver.
SBY  0:06:34 [/home/nikhil/projects/axi4lsf/fv/fvip_axi4lite_bmc] prep: Warning: Wire fvip_top.\wdata [27] is used but has no driver.
SBY  0:06:34 [/home/nikhil/projects/axi4lsf/fv/fvip_axi4lite_bmc] prep: Warning: Wire fvip_top.\wdata [26] is used but has no driver.
SBY  0:06:34 [/home/nikhil/projects/axi4lsf/fv/fvip_axi4lite_bmc] prep: Warning: Wire fvip_top.\wdata [25] is used but has no driver.
SBY  0:06:34 [/home/nikhil/projects/axi4lsf/fv/fvip_axi4lite_bmc] prep: Warning: Wire fvip_top.\wdata [24] is used but has no driver.
SBY  0:06:34 [/home/nikhil/projects/axi4lsf/fv/fvip_axi4lite_bmc] prep: Warning: Wire fvip_top.\wdata [23] is used but has no driver.
SBY  0:06:34 [/home/nikhil/projects/axi4lsf/fv/fvip_axi4lite_bmc] prep: Warning: Wire fvip_top.\wdata [22] is used but has no driver.
SBY  0:06:34 [/home/nikhil/projects/axi4lsf/fv/fvip_axi4lite_bmc] prep: Warning: Wire fvip_top.\wdata [21] is used but has no driver.
SBY  0:06:34 [/home/nikhil/projects/axi4lsf/fv/fvip_axi4lite_bmc] prep: Warning: Wire fvip_top.\wdata [20] is used but has no driver.
SBY  0:06:34 [/home/nikhil/projects/axi4lsf/fv/fvip_axi4lite_bmc] prep: Warning: Wire fvip_top.\wdata [19] is used but has no driver.
SBY  0:06:34 [/home/nikhil/projects/axi4lsf/fv/fvip_axi4lite_bmc] prep: Warning: Wire fvip_top.\wdata [18] is used but has no driver.
SBY  0:06:34 [/home/nikhil/projects/axi4lsf/fv/fvip_axi4lite_bmc] prep: Warning: Wire fvip_top.\wdata [17] is used but has no driver.
SBY  0:06:34 [/home/nikhil/projects/axi4lsf/fv/fvip_axi4lite_bmc] prep: Warning: Wire fvip_top.\wdata [16] is used but has no driver.
SBY  0:06:34 [/home/nikhil/projects/axi4lsf/fv/fvip_axi4lite_bmc] prep: Warning: Wire fvip_top.\wdata [15] is used but has no driver.
SBY  0:06:34 [/home/nikhil/projects/axi4lsf/fv/fvip_axi4lite_bmc] prep: Warning: Wire fvip_top.\wdata [14] is used but has no driver.
SBY  0:06:34 [/home/nikhil/projects/axi4lsf/fv/fvip_axi4lite_bmc] prep: Warning: Wire fvip_top.\wdata [13] is used but has no driver.
SBY  0:06:34 [/home/nikhil/projects/axi4lsf/fv/fvip_axi4lite_bmc] prep: Warning: Wire fvip_top.\wdata [12] is used but has no driver.
SBY  0:06:34 [/home/nikhil/projects/axi4lsf/fv/fvip_axi4lite_bmc] prep: Warning: Wire fvip_top.\wdata [11] is used but has no driver.
SBY  0:06:34 [/home/nikhil/projects/axi4lsf/fv/fvip_axi4lite_bmc] prep: Warning: Wire fvip_top.\wdata [10] is used but has no driver.
SBY  0:06:34 [/home/nikhil/projects/axi4lsf/fv/fvip_axi4lite_bmc] prep: Warning: Wire fvip_top.\wdata [9] is used but has no driver.
SBY  0:06:34 [/home/nikhil/projects/axi4lsf/fv/fvip_axi4lite_bmc] prep: Warning: Wire fvip_top.\wdata [8] is used but has no driver.
SBY  0:06:34 [/home/nikhil/projects/axi4lsf/fv/fvip_axi4lite_bmc] prep: Warning: Wire fvip_top.\wdata [7] is used but has no driver.
SBY  0:06:34 [/home/nikhil/projects/axi4lsf/fv/fvip_axi4lite_bmc] prep: Warning: Wire fvip_top.\wdata [6] is used but has no driver.
SBY  0:06:34 [/home/nikhil/projects/axi4lsf/fv/fvip_axi4lite_bmc] prep: Warning: Wire fvip_top.\wdata [5] is used but has no driver.
SBY  0:06:34 [/home/nikhil/projects/axi4lsf/fv/fvip_axi4lite_bmc] prep: Warning: Wire fvip_top.\wdata [4] is used but has no driver.
SBY  0:06:34 [/home/nikhil/projects/axi4lsf/fv/fvip_axi4lite_bmc] prep: Warning: Wire fvip_top.\wdata [3] is used but has no driver.
SBY  0:06:34 [/home/nikhil/projects/axi4lsf/fv/fvip_axi4lite_bmc] prep: Warning: Wire fvip_top.\wdata [2] is used but has no driver.
SBY  0:06:34 [/home/nikhil/projects/axi4lsf/fv/fvip_axi4lite_bmc] prep: Warning: Wire fvip_top.\wdata [1] is used but has no driver.
SBY  0:06:34 [/home/nikhil/projects/axi4lsf/fv/fvip_axi4lite_bmc] prep: Warning: Wire fvip_top.\wdata [0] is used but has no driver.
SBY  0:06:34 [/home/nikhil/projects/axi4lsf/fv/fvip_axi4lite_bmc] prep: Warning: Wire fvip_top.\rready is used but has no driver.
SBY  0:06:34 [/home/nikhil/projects/axi4lsf/fv/fvip_axi4lite_bmc] prep: Warning: Wire fvip_top.\bready is used but has no driver.
SBY  0:06:34 [/home/nikhil/projects/axi4lsf/fv/fvip_axi4lite_bmc] prep: Warning: Wire fvip_top.\awvalid is used but has no driver.
SBY  0:06:34 [/home/nikhil/projects/axi4lsf/fv/fvip_axi4lite_bmc] prep: Warning: Wire fvip_top.\awprot [2] is used but has no driver.
SBY  0:06:34 [/home/nikhil/projects/axi4lsf/fv/fvip_axi4lite_bmc] prep: Warning: Wire fvip_top.\awprot [1] is used but has no driver.
SBY  0:06:34 [/home/nikhil/projects/axi4lsf/fv/fvip_axi4lite_bmc] prep: Warning: Wire fvip_top.\awprot [0] is used but has no driver.
SBY  0:06:34 [/home/nikhil/projects/axi4lsf/fv/fvip_axi4lite_bmc] prep: Warning: Wire fvip_top.\awaddr [3] is used but has no driver.
SBY  0:06:34 [/home/nikhil/projects/axi4lsf/fv/fvip_axi4lite_bmc] prep: Warning: Wire fvip_top.\awaddr [2] is used but has no driver.
SBY  0:06:34 [/home/nikhil/projects/axi4lsf/fv/fvip_axi4lite_bmc] prep: Warning: Wire fvip_top.\awaddr [1] is used but has no driver.
SBY  0:06:34 [/home/nikhil/projects/axi4lsf/fv/fvip_axi4lite_bmc] prep: Warning: Wire fvip_top.\awaddr [0] is used but has no driver.
SBY  0:06:34 [/home/nikhil/projects/axi4lsf/fv/fvip_axi4lite_bmc] prep: Warning: Wire fvip_top.\arvalid is used but has no driver.
SBY  0:06:34 [/home/nikhil/projects/axi4lsf/fv/fvip_axi4lite_bmc] prep: Warning: Wire fvip_top.\arprot [2] is used but has no driver.
SBY  0:06:34 [/home/nikhil/projects/axi4lsf/fv/fvip_axi4lite_bmc] prep: Warning: Wire fvip_top.\arprot [1] is used but has no driver.
SBY  0:06:34 [/home/nikhil/projects/axi4lsf/fv/fvip_axi4lite_bmc] prep: Warning: Wire fvip_top.\arprot [0] is used but has no driver.
SBY  0:06:34 [/home/nikhil/projects/axi4lsf/fv/fvip_axi4lite_bmc] prep: Warning: Wire fvip_top.\aresetn is used but has no driver.
SBY  0:06:34 [/home/nikhil/projects/axi4lsf/fv/fvip_axi4lite_bmc] prep: Warning: Wire fvip_top.\araddr [3] is used but has no driver.
SBY  0:06:34 [/home/nikhil/projects/axi4lsf/fv/fvip_axi4lite_bmc] prep: Warning: Wire fvip_top.\araddr [2] is used but has no driver.
SBY  0:06:34 [/home/nikhil/projects/axi4lsf/fv/fvip_axi4lite_bmc] prep: Warning: Wire fvip_top.\araddr [1] is used but has no driver.
SBY  0:06:34 [/home/nikhil/projects/axi4lsf/fv/fvip_axi4lite_bmc] prep: Warning: Wire fvip_top.\araddr [0] is used but has no driver.
SBY  0:06:34 [/home/nikhil/projects/axi4lsf/fv/fvip_axi4lite_bmc] prep: finished (returncode=0)
SBY  0:06:34 [/home/nikhil/projects/axi4lsf/fv/fvip_axi4lite_bmc] smt2: starting process "cd /home/nikhil/projects/axi4lsf/fv/fvip_axi4lite_bmc/model; yosys -ql design_smt2.log design_smt2.ys"
SBY  0:06:34 [/home/nikhil/projects/axi4lsf/fv/fvip_axi4lite_bmc] smt2: finished (returncode=0)
SBY  0:06:34 [/home/nikhil/projects/axi4lsf/fv/fvip_axi4lite_bmc] engine_0: starting process "cd /home/nikhil/projects/axi4lsf/fv/fvip_axi4lite_bmc; yosys-smtbmc -s boolector --presat --unroll --noprogress -t 60  --append 0 --dump-vcd engine_0/trace.vcd --dump-yw engine_0/trace.yw --dump-vlogtb engine_0/trace_tb.v --dump-smtc engine_0/trace.smtc model/design_smt2.smt2"
SBY  0:06:34 [/home/nikhil/projects/axi4lsf/fv/fvip_axi4lite_bmc] engine_0: ##   0:00:00  Solver: boolector
SBY  0:06:34 [/home/nikhil/projects/axi4lsf/fv/fvip_axi4lite_bmc] engine_0: ##   0:00:00  Checking assumptions in step 0..
SBY  0:06:34 [/home/nikhil/projects/axi4lsf/fv/fvip_axi4lite_bmc] engine_0: ##   0:00:00  Checking assertions in step 0..
SBY  0:06:34 [/home/nikhil/projects/axi4lsf/fv/fvip_axi4lite_bmc] engine_0: ##   0:00:00  Checking assumptions in step 1..
SBY  0:06:34 [/home/nikhil/projects/axi4lsf/fv/fvip_axi4lite_bmc] engine_0: ##   0:00:00  Checking assertions in step 1..
SBY  0:06:34 [/home/nikhil/projects/axi4lsf/fv/fvip_axi4lite_bmc] engine_0: ##   0:00:00  Checking assumptions in step 2..
SBY  0:06:34 [/home/nikhil/projects/axi4lsf/fv/fvip_axi4lite_bmc] engine_0: ##   0:00:00  Checking assertions in step 2..
SBY  0:06:34 [/home/nikhil/projects/axi4lsf/fv/fvip_axi4lite_bmc] engine_0: ##   0:00:00  Checking assumptions in step 3..
SBY  0:06:34 [/home/nikhil/projects/axi4lsf/fv/fvip_axi4lite_bmc] engine_0: ##   0:00:00  Checking assertions in step 3..
SBY  0:06:34 [/home/nikhil/projects/axi4lsf/fv/fvip_axi4lite_bmc] engine_0: ##   0:00:00  Checking assumptions in step 4..
SBY  0:06:35 [/home/nikhil/projects/axi4lsf/fv/fvip_axi4lite_bmc] engine_0: ##   0:00:00  Checking assertions in step 4..
SBY  0:06:35 [/home/nikhil/projects/axi4lsf/fv/fvip_axi4lite_bmc] engine_0: ##   0:00:00  Checking assumptions in step 5..
SBY  0:06:35 [/home/nikhil/projects/axi4lsf/fv/fvip_axi4lite_bmc] engine_0: ##   0:00:00  Checking assertions in step 5..
SBY  0:06:35 [/home/nikhil/projects/axi4lsf/fv/fvip_axi4lite_bmc] engine_0: ##   0:00:00  Checking assumptions in step 6..
SBY  0:06:35 [/home/nikhil/projects/axi4lsf/fv/fvip_axi4lite_bmc] engine_0: ##   0:00:00  Checking assertions in step 6..
SBY  0:06:35 [/home/nikhil/projects/axi4lsf/fv/fvip_axi4lite_bmc] engine_0: ##   0:00:00  Checking assumptions in step 7..
SBY  0:06:35 [/home/nikhil/projects/axi4lsf/fv/fvip_axi4lite_bmc] engine_0: ##   0:00:00  Checking assertions in step 7..
SBY  0:06:35 [/home/nikhil/projects/axi4lsf/fv/fvip_axi4lite_bmc] engine_0: ##   0:00:00  Checking assumptions in step 8..
SBY  0:06:35 [/home/nikhil/projects/axi4lsf/fv/fvip_axi4lite_bmc] engine_0: ##   0:00:00  Checking assertions in step 8..
SBY  0:06:35 [/home/nikhil/projects/axi4lsf/fv/fvip_axi4lite_bmc] engine_0: ##   0:00:00  Checking assumptions in step 9..
SBY  0:06:35 [/home/nikhil/projects/axi4lsf/fv/fvip_axi4lite_bmc] engine_0: ##   0:00:00  Checking assertions in step 9..
SBY  0:06:35 [/home/nikhil/projects/axi4lsf/fv/fvip_axi4lite_bmc] engine_0: ##   0:00:00  Checking assumptions in step 10..
SBY  0:06:35 [/home/nikhil/projects/axi4lsf/fv/fvip_axi4lite_bmc] engine_0: ##   0:00:00  Checking assertions in step 10..
SBY  0:06:35 [/home/nikhil/projects/axi4lsf/fv/fvip_axi4lite_bmc] engine_0: ##   0:00:01  Checking assumptions in step 11..
SBY  0:06:35 [/home/nikhil/projects/axi4lsf/fv/fvip_axi4lite_bmc] engine_0: ##   0:00:01  Checking assertions in step 11..
SBY  0:06:36 [/home/nikhil/projects/axi4lsf/fv/fvip_axi4lite_bmc] engine_0: ##   0:00:01  Checking assumptions in step 12..
SBY  0:06:36 [/home/nikhil/projects/axi4lsf/fv/fvip_axi4lite_bmc] engine_0: ##   0:00:01  Checking assertions in step 12..
SBY  0:06:36 [/home/nikhil/projects/axi4lsf/fv/fvip_axi4lite_bmc] engine_0: ##   0:00:01  Checking assumptions in step 13..
SBY  0:06:36 [/home/nikhil/projects/axi4lsf/fv/fvip_axi4lite_bmc] engine_0: ##   0:00:01  Checking assertions in step 13..
SBY  0:06:36 [/home/nikhil/projects/axi4lsf/fv/fvip_axi4lite_bmc] engine_0: ##   0:00:01  Checking assumptions in step 14..
SBY  0:06:36 [/home/nikhil/projects/axi4lsf/fv/fvip_axi4lite_bmc] engine_0: ##   0:00:02  Checking assertions in step 14..
SBY  0:06:36 [/home/nikhil/projects/axi4lsf/fv/fvip_axi4lite_bmc] engine_0: ##   0:00:02  Checking assumptions in step 15..
SBY  0:06:37 [/home/nikhil/projects/axi4lsf/fv/fvip_axi4lite_bmc] engine_0: ##   0:00:02  Checking assertions in step 15..
SBY  0:06:37 [/home/nikhil/projects/axi4lsf/fv/fvip_axi4lite_bmc] engine_0: ##   0:00:02  Checking assumptions in step 16..
SBY  0:06:37 [/home/nikhil/projects/axi4lsf/fv/fvip_axi4lite_bmc] engine_0: ##   0:00:02  Checking assertions in step 16..
SBY  0:06:37 [/home/nikhil/projects/axi4lsf/fv/fvip_axi4lite_bmc] engine_0: ##   0:00:02  Checking assumptions in step 17..
SBY  0:06:37 [/home/nikhil/projects/axi4lsf/fv/fvip_axi4lite_bmc] engine_0: ##   0:00:02  Checking assertions in step 17..
SBY  0:06:37 [/home/nikhil/projects/axi4lsf/fv/fvip_axi4lite_bmc] engine_0: ##   0:00:03  Checking assumptions in step 18..
SBY  0:06:38 [/home/nikhil/projects/axi4lsf/fv/fvip_axi4lite_bmc] engine_0: ##   0:00:03  Checking assertions in step 18..
SBY  0:06:38 [/home/nikhil/projects/axi4lsf/fv/fvip_axi4lite_bmc] engine_0: ##   0:00:03  Checking assumptions in step 19..
SBY  0:06:38 [/home/nikhil/projects/axi4lsf/fv/fvip_axi4lite_bmc] engine_0: ##   0:00:03  Checking assertions in step 19..
SBY  0:06:39 [/home/nikhil/projects/axi4lsf/fv/fvip_axi4lite_bmc] engine_0: ##   0:00:04  Checking assumptions in step 20..
SBY  0:06:39 [/home/nikhil/projects/axi4lsf/fv/fvip_axi4lite_bmc] engine_0: ##   0:00:04  Checking assertions in step 20..
SBY  0:06:39 [/home/nikhil/projects/axi4lsf/fv/fvip_axi4lite_bmc] engine_0: ##   0:00:04  Checking assumptions in step 21..
SBY  0:06:39 [/home/nikhil/projects/axi4lsf/fv/fvip_axi4lite_bmc] engine_0: ##   0:00:05  Checking assertions in step 21..
SBY  0:06:40 [/home/nikhil/projects/axi4lsf/fv/fvip_axi4lite_bmc] engine_0: ##   0:00:05  Checking assumptions in step 22..
SBY  0:06:40 [/home/nikhil/projects/axi4lsf/fv/fvip_axi4lite_bmc] engine_0: ##   0:00:05  Checking assertions in step 22..
SBY  0:06:41 [/home/nikhil/projects/axi4lsf/fv/fvip_axi4lite_bmc] engine_0: ##   0:00:06  Checking assumptions in step 23..
SBY  0:06:41 [/home/nikhil/projects/axi4lsf/fv/fvip_axi4lite_bmc] engine_0: ##   0:00:06  Checking assertions in step 23..
SBY  0:06:41 [/home/nikhil/projects/axi4lsf/fv/fvip_axi4lite_bmc] engine_0: ##   0:00:07  Checking assumptions in step 24..
SBY  0:06:42 [/home/nikhil/projects/axi4lsf/fv/fvip_axi4lite_bmc] engine_0: ##   0:00:07  Checking assertions in step 24..
SBY  0:06:42 [/home/nikhil/projects/axi4lsf/fv/fvip_axi4lite_bmc] engine_0: ##   0:00:08  Checking assumptions in step 25..
SBY  0:06:43 [/home/nikhil/projects/axi4lsf/fv/fvip_axi4lite_bmc] engine_0: ##   0:00:08  Checking assertions in step 25..
SBY  0:06:44 [/home/nikhil/projects/axi4lsf/fv/fvip_axi4lite_bmc] engine_0: ##   0:00:09  Checking assumptions in step 26..
SBY  0:06:44 [/home/nikhil/projects/axi4lsf/fv/fvip_axi4lite_bmc] engine_0: ##   0:00:09  Checking assertions in step 26..
SBY  0:06:45 [/home/nikhil/projects/axi4lsf/fv/fvip_axi4lite_bmc] engine_0: ##   0:00:10  Checking assumptions in step 27..
SBY  0:06:45 [/home/nikhil/projects/axi4lsf/fv/fvip_axi4lite_bmc] engine_0: ##   0:00:10  Checking assertions in step 27..
SBY  0:06:46 [/home/nikhil/projects/axi4lsf/fv/fvip_axi4lite_bmc] engine_0: ##   0:00:11  Checking assumptions in step 28..
SBY  0:06:46 [/home/nikhil/projects/axi4lsf/fv/fvip_axi4lite_bmc] engine_0: ##   0:00:11  Checking assertions in step 28..
SBY  0:06:47 [/home/nikhil/projects/axi4lsf/fv/fvip_axi4lite_bmc] engine_0: ##   0:00:13  Checking assumptions in step 29..
SBY  0:06:48 [/home/nikhil/projects/axi4lsf/fv/fvip_axi4lite_bmc] engine_0: ##   0:00:13  Checking assertions in step 29..
SBY  0:06:49 [/home/nikhil/projects/axi4lsf/fv/fvip_axi4lite_bmc] engine_0: ##   0:00:14  Checking assumptions in step 30..
SBY  0:06:49 [/home/nikhil/projects/axi4lsf/fv/fvip_axi4lite_bmc] engine_0: ##   0:00:14  Checking assertions in step 30..
SBY  0:06:51 [/home/nikhil/projects/axi4lsf/fv/fvip_axi4lite_bmc] engine_0: ##   0:00:16  Checking assumptions in step 31..
SBY  0:06:51 [/home/nikhil/projects/axi4lsf/fv/fvip_axi4lite_bmc] engine_0: ##   0:00:16  Checking assertions in step 31..
SBY  0:06:52 [/home/nikhil/projects/axi4lsf/fv/fvip_axi4lite_bmc] engine_0: ##   0:00:17  Checking assumptions in step 32..
SBY  0:06:52 [/home/nikhil/projects/axi4lsf/fv/fvip_axi4lite_bmc] engine_0: ##   0:00:18  Checking assertions in step 32..
SBY  0:06:54 [/home/nikhil/projects/axi4lsf/fv/fvip_axi4lite_bmc] engine_0: ##   0:00:19  Checking assumptions in step 33..
SBY  0:06:54 [/home/nikhil/projects/axi4lsf/fv/fvip_axi4lite_bmc] engine_0: ##   0:00:19  Checking assertions in step 33..
SBY  0:06:56 [/home/nikhil/projects/axi4lsf/fv/fvip_axi4lite_bmc] engine_0: ##   0:00:21  Checking assumptions in step 34..
SBY  0:06:56 [/home/nikhil/projects/axi4lsf/fv/fvip_axi4lite_bmc] engine_0: ##   0:00:22  Checking assertions in step 34..
SBY  0:06:58 [/home/nikhil/projects/axi4lsf/fv/fvip_axi4lite_bmc] engine_0: ##   0:00:23  Checking assumptions in step 35..
SBY  0:06:58 [/home/nikhil/projects/axi4lsf/fv/fvip_axi4lite_bmc] engine_0: ##   0:00:23  Checking assertions in step 35..
SBY  0:07:00 [/home/nikhil/projects/axi4lsf/fv/fvip_axi4lite_bmc] engine_0: ##   0:00:25  Checking assumptions in step 36..
SBY  0:07:00 [/home/nikhil/projects/axi4lsf/fv/fvip_axi4lite_bmc] engine_0: ##   0:00:26  Checking assertions in step 36..
SBY  0:07:03 [/home/nikhil/projects/axi4lsf/fv/fvip_axi4lite_bmc] engine_0: ##   0:00:28  Checking assumptions in step 37..
SBY  0:07:03 [/home/nikhil/projects/axi4lsf/fv/fvip_axi4lite_bmc] engine_0: ##   0:00:29  Checking assertions in step 37..
SBY  0:07:05 [/home/nikhil/projects/axi4lsf/fv/fvip_axi4lite_bmc] engine_0: ##   0:00:31  Checking assumptions in step 38..
SBY  0:07:06 [/home/nikhil/projects/axi4lsf/fv/fvip_axi4lite_bmc] engine_0: ##   0:00:31  Checking assertions in step 38..
SBY  0:07:07 [/home/nikhil/projects/axi4lsf/fv/fvip_axi4lite_bmc] engine_0: ##   0:00:32  Checking assumptions in step 39..
SBY  0:07:07 [/home/nikhil/projects/axi4lsf/fv/fvip_axi4lite_bmc] engine_0: ##   0:00:33  Checking assertions in step 39..
SBY  0:07:09 [/home/nikhil/projects/axi4lsf/fv/fvip_axi4lite_bmc] engine_0: ##   0:00:34  Checking assumptions in step 40..
SBY  0:07:10 [/home/nikhil/projects/axi4lsf/fv/fvip_axi4lite_bmc] engine_0: ##   0:00:35  Checking assertions in step 40..
SBY  0:07:11 [/home/nikhil/projects/axi4lsf/fv/fvip_axi4lite_bmc] engine_0: ##   0:00:37  Checking assumptions in step 41..
SBY  0:07:12 [/home/nikhil/projects/axi4lsf/fv/fvip_axi4lite_bmc] engine_0: ##   0:00:37  Checking assertions in step 41..
SBY  0:07:14 [/home/nikhil/projects/axi4lsf/fv/fvip_axi4lite_bmc] engine_0: ##   0:00:39  Checking assumptions in step 42..
SBY  0:07:14 [/home/nikhil/projects/axi4lsf/fv/fvip_axi4lite_bmc] engine_0: ##   0:00:39  Checking assertions in step 42..
SBY  0:07:18 [/home/nikhil/projects/axi4lsf/fv/fvip_axi4lite_bmc] engine_0: ##   0:00:43  Checking assumptions in step 43..
SBY  0:07:18 [/home/nikhil/projects/axi4lsf/fv/fvip_axi4lite_bmc] engine_0: ##   0:00:43  Checking assertions in step 43..
SBY  0:07:20 [/home/nikhil/projects/axi4lsf/fv/fvip_axi4lite_bmc] engine_0: ##   0:00:45  Checking assumptions in step 44..
SBY  0:07:20 [/home/nikhil/projects/axi4lsf/fv/fvip_axi4lite_bmc] engine_0: ##   0:00:46  Checking assertions in step 44..
SBY  0:07:23 [/home/nikhil/projects/axi4lsf/fv/fvip_axi4lite_bmc] engine_0: ##   0:00:48  Checking assumptions in step 45..
SBY  0:07:23 [/home/nikhil/projects/axi4lsf/fv/fvip_axi4lite_bmc] engine_0: ##   0:00:48  Checking assertions in step 45..
SBY  0:07:26 [/home/nikhil/projects/axi4lsf/fv/fvip_axi4lite_bmc] engine_0: ##   0:00:51  Checking assumptions in step 46..
SBY  0:07:26 [/home/nikhil/projects/axi4lsf/fv/fvip_axi4lite_bmc] engine_0: ##   0:00:51  Checking assertions in step 46..
SBY  0:07:28 [/home/nikhil/projects/axi4lsf/fv/fvip_axi4lite_bmc] engine_0: ##   0:00:54  Checking assumptions in step 47..
SBY  0:07:29 [/home/nikhil/projects/axi4lsf/fv/fvip_axi4lite_bmc] engine_0: ##   0:00:54  Checking assertions in step 47..
SBY  0:07:32 [/home/nikhil/projects/axi4lsf/fv/fvip_axi4lite_bmc] engine_0: ##   0:00:57  Checking assumptions in step 48..
SBY  0:07:32 [/home/nikhil/projects/axi4lsf/fv/fvip_axi4lite_bmc] engine_0: ##   0:00:57  Checking assertions in step 48..
SBY  0:07:35 [/home/nikhil/projects/axi4lsf/fv/fvip_axi4lite_bmc] engine_0: ##   0:01:00  Checking assumptions in step 49..
SBY  0:07:36 [/home/nikhil/projects/axi4lsf/fv/fvip_axi4lite_bmc] engine_0: ##   0:01:01  Checking assertions in step 49..
SBY  0:07:38 [/home/nikhil/projects/axi4lsf/fv/fvip_axi4lite_bmc] engine_0: ##   0:01:04  Checking assumptions in step 50..
SBY  0:07:39 [/home/nikhil/projects/axi4lsf/fv/fvip_axi4lite_bmc] engine_0: ##   0:01:04  Checking assertions in step 50..
SBY  0:07:45 [/home/nikhil/projects/axi4lsf/fv/fvip_axi4lite_bmc] engine_0: ##   0:01:10  Checking assumptions in step 51..
SBY  0:07:45 [/home/nikhil/projects/axi4lsf/fv/fvip_axi4lite_bmc] engine_0: ##   0:01:11  Checking assertions in step 51..
SBY  0:07:49 [/home/nikhil/projects/axi4lsf/fv/fvip_axi4lite_bmc] engine_0: ##   0:01:14  Checking assumptions in step 52..
SBY  0:07:49 [/home/nikhil/projects/axi4lsf/fv/fvip_axi4lite_bmc] engine_0: ##   0:01:15  Checking assertions in step 52..
SBY  0:07:52 [/home/nikhil/projects/axi4lsf/fv/fvip_axi4lite_bmc] engine_0: ##   0:01:17  Checking assumptions in step 53..
SBY  0:07:53 [/home/nikhil/projects/axi4lsf/fv/fvip_axi4lite_bmc] engine_0: ##   0:01:18  Checking assertions in step 53..
SBY  0:07:55 [/home/nikhil/projects/axi4lsf/fv/fvip_axi4lite_bmc] engine_0: ##   0:01:21  Checking assumptions in step 54..
SBY  0:07:56 [/home/nikhil/projects/axi4lsf/fv/fvip_axi4lite_bmc] engine_0: ##   0:01:21  Checking assertions in step 54..
SBY  0:08:00 [/home/nikhil/projects/axi4lsf/fv/fvip_axi4lite_bmc] engine_0: ##   0:01:26  Checking assumptions in step 55..
SBY  0:08:01 [/home/nikhil/projects/axi4lsf/fv/fvip_axi4lite_bmc] engine_0: ##   0:01:26  Checking assertions in step 55..
SBY  0:08:04 [/home/nikhil/projects/axi4lsf/fv/fvip_axi4lite_bmc] engine_0: ##   0:01:29  Checking assumptions in step 56..
SBY  0:08:05 [/home/nikhil/projects/axi4lsf/fv/fvip_axi4lite_bmc] engine_0: ##   0:01:30  Checking assertions in step 56..
SBY  0:08:08 [/home/nikhil/projects/axi4lsf/fv/fvip_axi4lite_bmc] engine_0: ##   0:01:33  Checking assumptions in step 57..
SBY  0:08:09 [/home/nikhil/projects/axi4lsf/fv/fvip_axi4lite_bmc] engine_0: ##   0:01:34  Checking assertions in step 57..
SBY  0:08:11 [/home/nikhil/projects/axi4lsf/fv/fvip_axi4lite_bmc] engine_0: ##   0:01:36  Checking assumptions in step 58..
SBY  0:08:12 [/home/nikhil/projects/axi4lsf/fv/fvip_axi4lite_bmc] engine_0: ##   0:01:37  Checking assertions in step 58..
SBY  0:08:15 [/home/nikhil/projects/axi4lsf/fv/fvip_axi4lite_bmc] engine_0: ##   0:01:40  Checking assumptions in step 59..
SBY  0:08:16 [/home/nikhil/projects/axi4lsf/fv/fvip_axi4lite_bmc] engine_0: ##   0:01:41  Checking assertions in step 59..
SBY  0:08:19 [/home/nikhil/projects/axi4lsf/fv/fvip_axi4lite_bmc] engine_0: ##   0:01:44  Status: passed
SBY  0:08:19 [/home/nikhil/projects/axi4lsf/fv/fvip_axi4lite_bmc] engine_0: finished (returncode=0)
SBY  0:08:19 [/home/nikhil/projects/axi4lsf/fv/fvip_axi4lite_bmc] engine_0: Status returned by engine: pass
SBY  0:08:19 [/home/nikhil/projects/axi4lsf/fv/fvip_axi4lite_bmc] summary: Elapsed clock time [H:MM:SS (secs)]: 0:01:45 (105)
SBY  0:08:19 [/home/nikhil/projects/axi4lsf/fv/fvip_axi4lite_bmc] summary: Elapsed process time [H:MM:SS (secs)]: 0:01:45 (105)
SBY  0:08:19 [/home/nikhil/projects/axi4lsf/fv/fvip_axi4lite_bmc] summary: engine_0 (smtbmc --unroll boolector) returned pass
SBY  0:08:19 [/home/nikhil/projects/axi4lsf/fv/fvip_axi4lite_bmc] summary: engine_0 did not produce any traces
SBY  0:08:19 [/home/nikhil/projects/axi4lsf/fv/fvip_axi4lite_bmc] DONE (PASS, rc=0)
